T9910 000:012.215   SEGGER J-Link V6.70e Log File
T9910 000:012.357   DLL Compiled: Apr 17 2020 17:55:05
T9910 000:012.362   Logging started @ 2021-05-09 08:04
T9910 000:012.369 JLINK_SetWarnOutHandler(...)
T9910 000:012.376 - 0.009ms
T9910 000:012.384 JLINK_OpenEx(...)
T9910 000:018.293   Firmware: J-Link V9 compiled Dec 13 2019 11:14:50
T9910 000:018.486   Decompressing FW timestamp took 137 us
T9910 000:024.903   Hardware: V9.60
T9910 000:024.963   S/N: 59600172
T9910 000:024.974   OEM: SEGGER
T9910 000:024.981   Feature(s): RDI, GDB, FlashDL, FlashBP, JFlash
T9910 000:026.256   TELNET listener socket opened on port 19021
T9910 000:026.373   WEBSRV Starting webserver
T9910 000:026.458   WEBSRV Failed to put socket into listener state (port 19080)
T9910 000:026.598   WEBSRV Webserver running on local port 19081
T9910 000:026.617 - 14.236ms returns "O.K."
T9910 000:026.638 JLINK_GetEmuCaps()
T9910 000:026.646 - 0.011ms returns 0xB9FF7BBF
T9910 000:026.656 JLINK_TIF_GetAvailable(...)
T9910 000:026.922 - 0.275ms
T9910 000:026.942 JLINK_SetErrorOutHandler(...)
T9910 000:026.948 - 0.008ms
T9910 000:026.979 JLINK_ExecCommand("ProjectFile = "H:\1\代码合集\哨兵2021代码\合集2\下板\底盘移动\USER\JLinkSettings.ini"", ...). 
T9910 000:040.454 - 13.530ms returns 0x00
T9910 000:048.058 JLINK_ExecCommand("Device = STM32F407VE", ...). 
T9910 000:056.559   Device "STM32F407VE" selected.
T9910 000:057.165 - 8.984ms returns 0x00
T9910 000:057.193 JLINK_ExecCommand("DisableConnectionTimeout", ...). 
T9910 000:057.204 - 0.005ms returns 0x01
T9910 000:057.212 JLINK_GetHardwareVersion()
T9910 000:057.217 - 0.007ms returns 0x17700
T9910 000:057.224 JLINK_GetDLLVersion()  returns 67005
T9910 000:057.235 JLINK_GetFirmwareString(...)
T9910 000:057.240 - 0.007ms
T9910 000:073.836 JLINK_GetDLLVersion()  returns 67005
T9910 000:074.022 JLINK_GetCompileDateTime()
T9910 000:074.047 - 0.028ms
T9910 000:082.562 JLINK_GetFirmwareString(...)
T9910 000:082.588 - 0.028ms
T9910 000:089.438 JLINK_GetHardwareVersion()
T9910 000:089.530 - 0.096ms returns 0x17700
T9910 000:109.671 JLINK_TIF_Select(JLINKARM_TIF_SWD)
T9910 000:110.492 - 0.828ms returns 0x00
T9910 000:110.516 JLINK_SetSpeed(1000)
T9910 000:110.621 - 0.112ms
T9910 000:110.635 JLINK_GetId()
T9910 000:117.412   Found SW-DP with ID 0x2BA01477
T9910 000:134.174   Found SW-DP with ID 0x2BA01477
T9910 000:136.347   Old FW that does not support reading DPIDR via DAP jobs
T9910 000:142.289   Unknown DP version. Assuming DPv0
T9910 000:146.028   Scanning AP map to find all available APs
T9910 000:150.794   AP[1]: Stopped AP scan as end of AP map has been reached
T9910 000:153.731   AP[0]: AHB-AP (IDR: 0x24770011)
T9910 000:158.381   Iterating through AP map to find AHB-AP to use
T9910 000:163.571   AP[0]: Core found
T9910 000:168.108   AP[0]: AHB-AP ROM base: 0xE00FF000
T9910 000:176.146   CPUID register: 0x410FC241. Implementer code: 0x41 (ARM)
T9910 000:180.103   Found Cortex-M4 r0p1, Little endian.
T9910 000:281.716    -- Max. mem block: 0x00010BB0
T9910 000:281.951   CPU_ReadMem(4 bytes @ 0xE000EDF0)
T9910 000:282.845   CPU_ReadMem(4 bytes @ 0xE0002000)
T9910 000:287.023   FPUnit: 6 code (BP) slots and 2 literal slots
T9910 000:287.225   CPU_ReadMem(4 bytes @ 0xE000EDFC)
T9910 000:288.200   CPU_ReadMem(4 bytes @ 0xE0001000)
T9910 000:288.774   CPU_WriteMem(4 bytes @ 0xE0001000)
T9910 000:289.620   CPU_ReadMem(4 bytes @ 0xE000ED88)
T9910 000:290.247   CPU_WriteMem(4 bytes @ 0xE000ED88)
T9910 000:290.884   CPU_ReadMem(4 bytes @ 0xE000ED88)
T9910 000:291.454   CPU_WriteMem(4 bytes @ 0xE000ED88)
T9910 000:295.504   CoreSight components:
T9910 000:300.238   ROMTbl[0] @ E00FF000
T9910 000:300.268   CPU_ReadMem(64 bytes @ 0xE00FF000)
T9910 000:301.711   CPU_ReadMem(32 bytes @ 0xE000EFE0)
T9910 000:308.877   ROMTbl[0][0]: E000E000, CID: B105E00D, PID: 000BB00C SCS-M7
T9910 000:308.927   CPU_ReadMem(32 bytes @ 0xE0001FE0)
T9910 000:313.641   ROMTbl[0][1]: E0001000, CID: B105E00D, PID: 003BB002 DWT
T9910 000:313.809   CPU_ReadMem(32 bytes @ 0xE0002FE0)
T9910 000:317.920   ROMTbl[0][2]: E0002000, CID: B105E00D, PID: 002BB003 FPB
T9910 000:317.947   CPU_ReadMem(32 bytes @ 0xE0000FE0)
T9910 000:326.004   ROMTbl[0][3]: E0000000, CID: B105E00D, PID: 003BB001 ITM
T9910 000:326.032   CPU_ReadMem(32 bytes @ 0xE0040FE0)
T9910 000:331.283   ROMTbl[0][4]: E0040000, CID: B105900D, PID: 000BB9A1 TPIU
T9910 000:331.408   CPU_ReadMem(32 bytes @ 0xE0041FE0)
T9910 000:338.289   ROMTbl[0][5]: E0041000, CID: B105900D, PID: 000BB925 ETM
T9910 000:339.141 - 228.569ms   returns 0x2BA01477
T9910 000:339.235 JLINK_GetDLLVersion()  returns 67005
T9910 000:339.409 JLINK_CORE_GetFound()
T9910 000:339.426 - 0.019ms returns 0xE0000FF
T9910 000:339.436 JLINK_GetDebugInfo(0x100 = JLINKARM_ROM_TABLE_ADDR_INDEX)
T9910 000:339.457   Value=0xE00FF000
T9910 000:339.466 - 0.033ms returns 0x00
T9910 000:343.284 JLINK_GetDebugInfo(0x100 = JLINKARM_ROM_TABLE_ADDR_INDEX)
T9910 000:343.316   Value=0xE00FF000
T9910 000:343.324 - 0.043ms returns 0x00
T9910 000:343.332 JLINK_GetDebugInfo(0x101 = JLINKARM_DEBUG_INFO_ETM_ADDR_INDEX)
T9910 000:343.337   Value=0xE0041000
T9910 000:343.344 - 0.014ms returns 0x00
T9910 000:343.401   JLINK_ReadMemEx(0xE0041FD0, 0x0020 Bytes, ..., Flags = 0x02000004)
T9910 000:343.440   CPU_ReadMem(32 bytes @ 0xE0041FD0)
T9910 000:344.513   Data:  04 00 00 00 00 00 00 00 00 00 00 00 00 00 00 00 ...
T9910 000:344.548 - 1.152ms returns 0x20
T9910 000:344.565 JLINK_GetDebugInfo(0x102 = JLINKARM_DEBUG_INFO_MTB_ADDR_INDEX)
T9910 000:344.572   Value=0x00000000
T9910 000:344.579 - 0.017ms returns 0x00
T9910 000:344.586 JLINK_GetDebugInfo(0x103 = JLINKARM_DEBUG_INFO_TPIU_ADDR_INDEX)
T9910 000:344.592   Value=0xE0040000
T9910 000:344.599 - 0.015ms returns 0x00
T9910 000:344.608 JLINK_GetDebugInfo(0x104 = JLINKARM_DEBUG_INFO_ITM_ADDR_INDEX)
T9910 000:344.617   Value=0xE0000000
T9910 000:344.627 - 0.023ms returns 0x00
T9910 000:344.638 JLINK_GetDebugInfo(0x105 = JLINKARM_DEBUG_INFO_DWT_ADDR_INDEX)
T9910 000:344.645   Value=0xE0001000
T9910 000:344.655 - 0.019ms returns 0x00
T9910 000:344.664 JLINK_GetDebugInfo(0x106 = JLINKARM_DEBUG_INFO_FPB_ADDR_INDEX)
T9910 000:344.672   Value=0xE0002000
T9910 000:344.687 - 0.027ms returns 0x00
T9910 000:344.701 JLINK_GetDebugInfo(0x107 = JLINKARM_DEBUG_INFO_NVIC_ADDR_INDEX)
T9910 000:344.708   Value=0xE000E000
T9910 000:344.719 - 0.023ms returns 0x00
T9910 000:344.736 JLINK_GetDebugInfo(0x10C = JLINKARM_DEBUG_INFO_DBG_ADDR_INDEX)
T9910 000:344.747   Value=0xE000EDF0
T9910 000:344.757 - 0.023ms returns 0x00
T9910 000:344.764 JLINK_GetDebugInfo(0x01 = Unknown)
T9910 000:344.774   Value=0x00000001
T9910 000:344.781 - 0.019ms returns 0x00
T9910 000:344.790 JLINK_ReadMemU32(0xE000ED00, 0x0001 Items, ...)
T9910 000:344.817   CPU_ReadMem(4 bytes @ 0xE000ED00)
T9910 000:345.530   Data:  41 C2 0F 41
T9910 000:345.571    - CPUID
T9910 000:345.580 - 0.792ms returns 1
T9910 000:345.595 JLINK_GetDebugInfo(0x10F = JLINKARM_DEBUG_INFO_HAS_CORTEX_M_SECURITY_EXT_INDEX)
T9910 000:345.603   Value=0x00000000
T9910 000:345.610 - 0.017ms returns 0x00
T9910 000:345.622 JLINK_SetResetType(JLINKARM_CM3_RESET_TYPE_NORMAL)
T9910 000:345.628 - 0.008ms returns JLINKARM_CM3_RESET_TYPE_NORMAL
T9910 000:345.635 JLINK_Reset()
T9910 000:345.660   CPU is running
T9910 000:345.671   CPU_WriteMem(4 bytes @ 0xE000EDF0)
T9910 000:346.286   CPU is running
T9910 000:346.300   CPU_WriteMem(4 bytes @ 0xE000EDFC)
T9910 000:351.461   Reset: Halt core after reset via DEMCR.VC_CORERESET.
T9910 000:356.275   Reset: Reset device via AIRCR.SYSRESETREQ.
T9910 000:356.354   CPU is running
T9910 000:356.377   CPU_WriteMem(4 bytes @ 0xE000ED0C)
T9910 000:409.687   CPU_ReadMem(4 bytes @ 0xE000EDF0)
T9910 000:410.264   CPU_ReadMem(4 bytes @ 0xE000EDF0)
T9910 000:410.925   CPU is running
T9910 000:410.938   CPU_WriteMem(4 bytes @ 0xE000EDF0)
T9910 000:411.509   CPU is running
T9910 000:411.522   CPU_WriteMem(4 bytes @ 0xE000EDFC)
T9910 000:417.802   CPU_ReadMem(4 bytes @ 0xE000EDF0)
T9910 000:424.797   CPU_WriteMem(4 bytes @ 0xE0002000)
T9910 000:425.412   CPU_ReadMem(4 bytes @ 0xE000EDFC)
T9910 000:425.971   CPU_ReadMem(4 bytes @ 0xE0001000)
T9910 000:426.558 - 80.928ms
T9910 000:426.574 JLINK_Halt()
T9910 000:426.580 - 0.008ms returns 0x00
T9910 000:426.588 JLINK_ReadMemU32(0xE000EDF0, 0x0001 Items, ...)
T9910 000:426.600   CPU_ReadMem(4 bytes @ 0xE000EDF0)
T9910 000:427.116   Data:  03 00 03 00
T9910 000:427.126    - DHCSR
T9910 000:427.134 - 0.547ms returns 1
T9910 000:427.144 JLINK_WriteU32(0xE000EDF0, 0xA05F0003)
T9910 000:427.149    - DHCSR
T9910 000:427.167   CPU_WriteMem(4 bytes @ 0xE000EDF0)
T9910 000:427.730 - 0.593ms returns 0
T9910 000:427.746 JLINK_WriteU32(0xE000EDFC, 0x01000000)
T9910 000:427.752    - DEMCR
T9910 000:427.765   CPU_WriteMem(4 bytes @ 0xE000EDFC)
T9910 000:428.377 - 0.644ms returns 0
T9910 000:448.433 JLINK_GetHWStatus(...)
T9910 000:448.646 - 0.226ms returns 0x00
T9910 000:460.934 JLINK_GetNumBPUnits(Type = 0xFFFFFF00)
T9910 000:460.956 - 0.024ms returns 0x06
T9910 000:460.963 JLINK_GetNumBPUnits(Type = 0xF0)
T9910 000:460.969 - 0.007ms returns 0x2000
T9910 000:460.975 JLINK_GetNumWPUnits()
T9910 000:460.980 - 0.007ms returns 0x04
T9910 000:474.706 JLINK_GetSpeed()
T9910 000:474.771 - 0.068ms returns 0x3E8
T9910 000:482.355 JLINK_ReadMemU32(0xE000E004, 0x0001 Items, ...)
T9910 000:482.452   CPU_ReadMem(4 bytes @ 0xE000E004)
T9910 000:483.078   Data:  02 00 00 00
T9910 000:483.090 - 0.738ms returns 1
T9910 000:483.099 JLINK_ReadMemU32(0xE000E004, 0x0001 Items, ...)
T9910 000:483.109   CPU_ReadMem(4 bytes @ 0xE000E004)
T9910 000:483.670   Data:  02 00 00 00
T9910 000:483.681 - 0.584ms returns 1
T9910 000:483.690 JLINK_WriteMemEx(0xE0001000, 0x001C Bytes, ..., Flags = 0x02000004)
T9910 000:483.696   Data:  01 00 00 00 00 00 00 00 00 00 00 00 00 00 00 00 ...
T9910 000:483.936   CPU_WriteMem(28 bytes @ 0xE0001000)
T9910 000:484.865 - 1.181ms returns 0x1C
T9910 000:484.887 JLINK_Halt()
T9910 000:484.893 - 0.008ms returns 0x00
T9910 000:484.899 JLINK_IsHalted()
T9910 000:484.905 - 0.008ms returns TRUE
T9910 000:490.403 JLINK_WriteMem(0x20000000, 0x0180 Bytes, ...)
T9910 000:490.445   Data:  00 BE 0A E0 0D 78 2D 06 68 40 08 24 40 00 00 D3 ...
T9910 000:491.472   CPU_WriteMem(384 bytes @ 0x20000000)
T9910 000:497.381 - 7.087ms returns 0x180
T9910 000:497.634 JLINK_WriteReg(R0, 0x08000000)
T9910 000:497.665 - 0.039ms returns 0x00
T9910 000:497.680 JLINK_WriteReg(R1, 0x00B71B00)
T9910 000:497.686 - 0.008ms returns 0x00
T9910 000:497.695 JLINK_WriteReg(R2, 0x00000001)
T9910 000:497.703 - 0.011ms returns 0x00
T9910 000:497.711 JLINK_WriteReg(R3, 0x00000000)
T9910 000:497.717 - 0.009ms returns 0x00
T9910 000:497.725 JLINK_WriteReg(R4, 0x00000000)
T9910 000:497.733 - 0.011ms returns 0x00
T9910 000:497.741 JLINK_WriteReg(R5, 0x00000000)
T9910 000:497.748 - 0.009ms returns 0x00
T9910 000:497.756 JLINK_WriteReg(R6, 0x00000000)
T9910 000:497.762 - 0.009ms returns 0x00
T9910 000:497.771 JLINK_WriteReg(R7, 0x00000000)
T9910 000:497.777 - 0.008ms returns 0x00
T9910 000:497.786 JLINK_WriteReg(R8, 0x00000000)
T9910 000:497.793 - 0.010ms returns 0x00
T9910 000:497.801 JLINK_WriteReg(R9, 0x2000017C)
T9910 000:497.809 - 0.011ms returns 0x00
T9910 000:497.818 JLINK_WriteReg(R10, 0x00000000)
T9910 000:497.825 - 0.010ms returns 0x00
T9910 000:497.835 JLINK_WriteReg(R11, 0x00000000)
T9910 000:497.841 - 0.009ms returns 0x00
T9910 000:497.850 JLINK_WriteReg(R12, 0x00000000)
T9910 000:497.857 - 0.010ms returns 0x00
T9910 000:497.865 JLINK_WriteReg(R13 (SP), 0x20001000)
T9910 000:497.874 - 0.012ms returns 0x00
T9910 000:497.882 JLINK_WriteReg(R14, 0x20000001)
T9910 000:497.889 - 0.009ms returns 0x00
T9910 000:497.897 JLINK_WriteReg(R15 (PC), 0x20000054)
T9910 000:497.905 - 0.010ms returns 0x00
T9910 000:497.913 JLINK_WriteReg(XPSR, 0x01000000)
T9910 000:497.921 - 0.012ms returns 0x00
T9910 000:497.930 JLINK_WriteReg(MSP, 0x20001000)
T9910 000:497.938 - 0.011ms returns 0x00
T9910 000:497.947 JLINK_WriteReg(PSP, 0x20001000)
T9910 000:497.953 - 0.008ms returns 0x00
T9910 000:497.961 JLINK_WriteReg(CFBP, 0x00000000)
T9910 000:498.010 - 0.053ms returns 0x00
T9910 000:498.022   JLINK_SetBPEx(Addr = 0x20000000, Type = 0xFFFFFFF2)
T9910 000:498.062   CPU_ReadMem(2 bytes @ 0x20000000)
T9910 000:498.949 - 0.966ms returns 0x00000001
T9910 000:499.005 JLINK_Go()
T9910 000:499.018   CPU_WriteMem(2 bytes @ 0x20000000)
T9910 000:499.781   CPU_ReadMem(4 bytes @ 0xE0001000)
T9910 000:500.356   CPU_WriteMem(4 bytes @ 0xE0002008)
T9910 000:500.370   CPU_WriteMem(4 bytes @ 0xE000200C)
T9910 000:500.378   CPU_WriteMem(4 bytes @ 0xE0002010)
T9910 000:500.386   CPU_WriteMem(4 bytes @ 0xE0002014)
T9910 000:500.393   CPU_WriteMem(4 bytes @ 0xE0002018)
T9910 000:500.401   CPU_WriteMem(4 bytes @ 0xE000201C)
T9910 000:502.946   CPU_WriteMem(4 bytes @ 0xE0001004)
T9910 000:509.571 - 10.589ms
T9910 000:509.606 JLINK_IsHalted()
T9910 000:515.848   CPU_ReadMem(2 bytes @ 0x20000000)
T9910 000:516.393 - 6.792ms returns TRUE
T9910 000:516.409 JLINK_ReadReg(R15 (PC))
T9910 000:516.418 - 0.011ms returns 0x20000000
T9910 000:516.425 JLINK_ClrBPEx(BPHandle = 0x00000001)
T9910 000:516.431 - 0.008ms returns 0x00
T9910 000:516.438 JLINK_ReadReg(R0)
T9910 000:516.443 - 0.008ms returns 0x00000000
T9910 000:516.721 JLINK_WriteReg(R0, 0x08000000)
T9910 000:516.731 - 0.013ms returns 0x00
T9910 000:516.738 JLINK_WriteReg(R1, 0x00004000)
T9910 000:516.743 - 0.008ms returns 0x00
T9910 000:516.750 JLINK_WriteReg(R2, 0x000000FF)
T9910 000:516.755 - 0.007ms returns 0x00
T9910 000:516.761 JLINK_WriteReg(R3, 0x00000000)
T9910 000:516.767 - 0.007ms returns 0x00
T9910 000:516.773 JLINK_WriteReg(R4, 0x00000000)
T9910 000:516.779 - 0.007ms returns 0x00
T9910 000:516.785 JLINK_WriteReg(R5, 0x00000000)
T9910 000:516.790 - 0.007ms returns 0x00
T9910 000:516.797 JLINK_WriteReg(R6, 0x00000000)
T9910 000:516.802 - 0.007ms returns 0x00
T9910 000:516.808 JLINK_WriteReg(R7, 0x00000000)
T9910 000:516.814 - 0.007ms returns 0x00
T9910 000:516.820 JLINK_WriteReg(R8, 0x00000000)
T9910 000:516.825 - 0.007ms returns 0x00
T9910 000:516.832 JLINK_WriteReg(R9, 0x2000017C)
T9910 000:516.837 - 0.007ms returns 0x00
T9910 000:516.844 JLINK_WriteReg(R10, 0x00000000)
T9910 000:516.849 - 0.007ms returns 0x00
T9910 000:516.856 JLINK_WriteReg(R11, 0x00000000)
T9910 000:516.861 - 0.007ms returns 0x00
T9910 000:516.867 JLINK_WriteReg(R12, 0x00000000)
T9910 000:516.873 - 0.007ms returns 0x00
T9910 000:516.879 JLINK_WriteReg(R13 (SP), 0x20001000)
T9910 000:516.885 - 0.008ms returns 0x00
T9910 000:516.891 JLINK_WriteReg(R14, 0x20000001)
T9910 000:516.897 - 0.007ms returns 0x00
T9910 000:516.903 JLINK_WriteReg(R15 (PC), 0x20000020)
T9910 000:516.909 - 0.007ms returns 0x00
T9910 000:516.915 JLINK_WriteReg(XPSR, 0x01000000)
T9910 000:516.920 - 0.007ms returns 0x00
T9910 000:516.927 JLINK_WriteReg(MSP, 0x20001000)
T9910 000:516.932 - 0.007ms returns 0x00
T9910 000:516.939 JLINK_WriteReg(PSP, 0x20001000)
T9910 000:516.944 - 0.007ms returns 0x00
T9910 000:516.950 JLINK_WriteReg(CFBP, 0x00000000)
T9910 000:516.956 - 0.007ms returns 0x00
T9910 000:516.963   JLINK_SetBPEx(Addr = 0x20000000, Type = 0xFFFFFFF2)
T9910 000:516.971 - 0.011ms returns 0x00000002
T9910 000:516.978 JLINK_Go()
T9910 000:516.989   CPU_ReadMem(4 bytes @ 0xE0001000)
T9910 000:523.502 - 6.679ms
T9910 000:523.708 JLINK_IsHalted()
T9910 000:524.540 - 0.875ms returns FALSE
T9910 000:545.014 JLINK_IsHalted()
T9910 000:551.746   CPU_ReadMem(2 bytes @ 0x20000000)
T9910 000:552.294 - 7.300ms returns TRUE
T9910 000:552.335 JLINK_ReadReg(R15 (PC))
T9910 000:552.359 - 0.028ms returns 0x20000000
T9910 000:552.370 JLINK_ClrBPEx(BPHandle = 0x00000002)
T9910 000:552.378 - 0.011ms returns 0x00
T9910 000:552.390 JLINK_ReadReg(R0)
T9910 000:552.397 - 0.010ms returns 0x00000000
T9910 000:554.222 JLINK_WriteReg(R0, 0x08004000)
T9910 000:554.301 - 0.086ms returns 0x00
T9910 000:554.312 JLINK_WriteReg(R1, 0x00004000)
T9910 000:554.318 - 0.009ms returns 0x00
T9910 000:554.326 JLINK_WriteReg(R2, 0x000000FF)
T9910 000:554.332 - 0.009ms returns 0x00
T9910 000:554.469 JLINK_WriteReg(R3, 0x00000000)
T9910 000:554.486 - 0.020ms returns 0x00
T9910 000:554.494 JLINK_WriteReg(R4, 0x00000000)
T9910 000:554.499 - 0.008ms returns 0x00
T9910 000:554.506 JLINK_WriteReg(R5, 0x00000000)
T9910 000:554.512 - 0.009ms returns 0x00
T9910 000:554.520 JLINK_WriteReg(R6, 0x00000000)
T9910 000:554.526 - 0.009ms returns 0x00
T9910 000:554.533 JLINK_WriteReg(R7, 0x00000000)
T9910 000:554.539 - 0.009ms returns 0x00
T9910 000:554.546 JLINK_WriteReg(R8, 0x00000000)
T9910 000:554.553 - 0.009ms returns 0x00
T9910 000:554.559 JLINK_WriteReg(R9, 0x2000017C)
T9910 000:554.565 - 0.008ms returns 0x00
T9910 000:554.572 JLINK_WriteReg(R10, 0x00000000)
T9910 000:554.578 - 0.008ms returns 0x00
T9910 000:554.585 JLINK_WriteReg(R11, 0x00000000)
T9910 000:554.591 - 0.008ms returns 0x00
T9910 000:554.598 JLINK_WriteReg(R12, 0x00000000)
T9910 000:554.604 - 0.008ms returns 0x00
T9910 000:554.611 JLINK_WriteReg(R13 (SP), 0x20001000)
T9910 000:554.620 - 0.011ms returns 0x00
T9910 000:554.627 JLINK_WriteReg(R14, 0x20000001)
T9910 000:554.632 - 0.008ms returns 0x00
T9910 000:554.640 JLINK_WriteReg(R15 (PC), 0x20000020)
T9910 000:554.646 - 0.009ms returns 0x00
T9910 000:554.653 JLINK_WriteReg(XPSR, 0x01000000)
T9910 000:554.659 - 0.008ms returns 0x00
T9910 000:554.666 JLINK_WriteReg(MSP, 0x20001000)
T9910 000:554.672 - 0.008ms returns 0x00
T9910 000:554.679 JLINK_WriteReg(PSP, 0x20001000)
T9910 000:554.685 - 0.008ms returns 0x00
T9910 000:554.691 JLINK_WriteReg(CFBP, 0x00000000)
T9910 000:554.697 - 0.008ms returns 0x00
T9910 000:554.707   JLINK_SetBPEx(Addr = 0x20000000, Type = 0xFFFFFFF2)
T9910 000:554.721 - 0.018ms returns 0x00000003
T9910 000:554.730 JLINK_Go()
T9910 000:554.761   CPU_ReadMem(4 bytes @ 0xE0001000)
T9910 000:560.996 - 6.290ms
T9910 000:561.029 JLINK_IsHalted()
T9910 000:561.560 - 0.561ms returns FALSE
T9910 000:563.090 JLINK_IsHalted()
T9910 000:563.956 - 0.909ms returns FALSE
T9910 000:565.930 JLINK_IsHalted()
T9910 000:566.525 - 0.604ms returns FALSE
T9910 000:567.921 JLINK_IsHalted()
T9910 000:568.513 - 0.598ms returns FALSE
T9910 000:570.038 JLINK_IsHalted()
T9910 000:571.064 - 1.075ms returns FALSE
T9910 000:572.947 JLINK_IsHalted()
T9910 000:573.753 - 0.821ms returns FALSE
T9910 000:574.976 JLINK_IsHalted()
T9910 000:581.372   CPU_ReadMem(2 bytes @ 0x20000000)
T9910 000:582.149 - 7.183ms returns TRUE
T9910 000:582.171 JLINK_ReadReg(R15 (PC))
T9910 000:582.181 - 0.013ms returns 0x20000000
T9910 000:582.189 JLINK_ClrBPEx(BPHandle = 0x00000003)
T9910 000:582.195 - 0.009ms returns 0x00
T9910 000:582.203 JLINK_ReadReg(R0)
T9910 000:582.209 - 0.008ms returns 0x00000000
T9910 000:582.626 JLINK_WriteReg(R0, 0x00000001)
T9910 000:582.636 - 0.013ms returns 0x00
T9910 000:582.643 JLINK_WriteReg(R1, 0x00004000)
T9910 000:582.648 - 0.007ms returns 0x00
T9910 000:582.655 JLINK_WriteReg(R2, 0x000000FF)
T9910 000:582.660 - 0.007ms returns 0x00
T9910 000:582.667 JLINK_WriteReg(R3, 0x00000000)
T9910 000:582.672 - 0.007ms returns 0x00
T9910 000:582.678 JLINK_WriteReg(R4, 0x00000000)
T9910 000:582.684 - 0.007ms returns 0x00
T9910 000:582.690 JLINK_WriteReg(R5, 0x00000000)
T9910 000:582.695 - 0.007ms returns 0x00
T9910 000:582.702 JLINK_WriteReg(R6, 0x00000000)
T9910 000:582.707 - 0.007ms returns 0x00
T9910 000:582.714 JLINK_WriteReg(R7, 0x00000000)
T9910 000:582.719 - 0.007ms returns 0x00
T9910 000:582.725 JLINK_WriteReg(R8, 0x00000000)
T9910 000:582.731 - 0.007ms returns 0x00
T9910 000:582.737 JLINK_WriteReg(R9, 0x2000017C)
T9910 000:582.742 - 0.007ms returns 0x00
T9910 000:582.749 JLINK_WriteReg(R10, 0x00000000)
T9910 000:582.754 - 0.007ms returns 0x00
T9910 000:582.761 JLINK_WriteReg(R11, 0x00000000)
T9910 000:582.766 - 0.007ms returns 0x00
T9910 000:582.773 JLINK_WriteReg(R12, 0x00000000)
T9910 000:582.778 - 0.007ms returns 0x00
T9910 000:582.784 JLINK_WriteReg(R13 (SP), 0x20001000)
T9910 000:582.790 - 0.008ms returns 0x00
T9910 000:582.797 JLINK_WriteReg(R14, 0x20000001)
T9910 000:582.802 - 0.007ms returns 0x00
T9910 000:582.808 JLINK_WriteReg(R15 (PC), 0x20000082)
T9910 000:582.819 - 0.013ms returns 0x00
T9910 000:582.826 JLINK_WriteReg(XPSR, 0x01000000)
T9910 000:582.831 - 0.007ms returns 0x00
T9910 000:582.838 JLINK_WriteReg(MSP, 0x20001000)
T9910 000:582.843 - 0.007ms returns 0x00
T9910 000:582.850 JLINK_WriteReg(PSP, 0x20001000)
T9910 000:582.855 - 0.007ms returns 0x00
T9910 000:582.862 JLINK_WriteReg(CFBP, 0x00000000)
T9910 000:582.867 - 0.007ms returns 0x00
T9910 000:582.874   JLINK_SetBPEx(Addr = 0x20000000, Type = 0xFFFFFFF2)
T9910 000:582.882 - 0.011ms returns 0x00000004
T9910 000:582.889 JLINK_Go()
T9910 000:582.901   CPU_ReadMem(4 bytes @ 0xE0001000)
T9910 000:589.268 - 6.436ms
T9910 000:589.348 JLINK_IsHalted()
T9910 000:595.961   CPU_ReadMem(2 bytes @ 0x20000000)
T9910 000:596.688 - 7.376ms returns TRUE
T9910 000:596.770 JLINK_ReadReg(R15 (PC))
T9910 000:596.799 - 0.037ms returns 0x20000000
T9910 000:597.075 JLINK_ClrBPEx(BPHandle = 0x00000004)
T9910 000:597.112 - 0.042ms returns 0x00
T9910 000:597.132 JLINK_ReadReg(R0)
T9910 000:597.142 - 0.015ms returns 0x00000000
T9910 000:660.679 JLINK_WriteMem(0x20000000, 0x0180 Bytes, ...)
T9910 000:660.697   Data:  00 BE 0A E0 0D 78 2D 06 68 40 08 24 40 00 00 D3 ...
T9910 000:660.725   CPU_WriteMem(384 bytes @ 0x20000000)
T9910 000:666.311 - 5.648ms returns 0x180
T9910 000:666.371 JLINK_WriteReg(R0, 0x08000000)
T9910 000:666.381 - 0.013ms returns 0x00
T9910 000:666.388 JLINK_WriteReg(R1, 0x00B71B00)
T9910 000:666.394 - 0.008ms returns 0x00
T9910 000:666.401 JLINK_WriteReg(R2, 0x00000002)
T9910 000:666.407 - 0.008ms returns 0x00
T9910 000:666.413 JLINK_WriteReg(R3, 0x00000000)
T9910 000:666.419 - 0.008ms returns 0x00
T9910 000:666.426 JLINK_WriteReg(R4, 0x00000000)
T9910 000:666.431 - 0.008ms returns 0x00
T9910 000:666.438 JLINK_WriteReg(R5, 0x00000000)
T9910 000:666.443 - 0.008ms returns 0x00
T9910 000:666.450 JLINK_WriteReg(R6, 0x00000000)
T9910 000:666.455 - 0.008ms returns 0x00
T9910 000:666.462 JLINK_WriteReg(R7, 0x00000000)
T9910 000:666.468 - 0.008ms returns 0x00
T9910 000:666.474 JLINK_WriteReg(R8, 0x00000000)
T9910 000:666.480 - 0.008ms returns 0x00
T9910 000:666.486 JLINK_WriteReg(R9, 0x2000017C)
T9910 000:666.492 - 0.008ms returns 0x00
T9910 000:666.499 JLINK_WriteReg(R10, 0x00000000)
T9910 000:666.504 - 0.008ms returns 0x00
T9910 000:666.511 JLINK_WriteReg(R11, 0x00000000)
T9910 000:666.516 - 0.008ms returns 0x00
T9910 000:666.523 JLINK_WriteReg(R12, 0x00000000)
T9910 000:666.528 - 0.008ms returns 0x00
T9910 000:666.535 JLINK_WriteReg(R13 (SP), 0x20001000)
T9910 000:666.541 - 0.008ms returns 0x00
T9910 000:666.548 JLINK_WriteReg(R14, 0x20000001)
T9910 000:666.553 - 0.008ms returns 0x00
T9910 000:666.560 JLINK_WriteReg(R15 (PC), 0x20000054)
T9910 000:666.566 - 0.008ms returns 0x00
T9910 000:666.572 JLINK_WriteReg(XPSR, 0x01000000)
T9910 000:666.578 - 0.008ms returns 0x00
T9910 000:666.584 JLINK_WriteReg(MSP, 0x20001000)
T9910 000:666.590 - 0.008ms returns 0x00
T9910 000:666.596 JLINK_WriteReg(PSP, 0x20001000)
T9910 000:666.602 - 0.008ms returns 0x00
T9910 000:666.608 JLINK_WriteReg(CFBP, 0x00000000)
T9910 000:666.614 - 0.008ms returns 0x00
T9910 000:666.622   JLINK_SetBPEx(Addr = 0x20000000, Type = 0xFFFFFFF2)
T9910 000:666.649   CPU_ReadMem(2 bytes @ 0x20000000)
T9910 000:667.137 - 0.521ms returns 0x00000005
T9910 000:667.149 JLINK_Go()
T9910 000:667.158   CPU_WriteMem(2 bytes @ 0x20000000)
T9910 000:667.672   CPU_ReadMem(4 bytes @ 0xE0001000)
T9910 000:674.001 - 6.882ms
T9910 000:674.043 JLINK_IsHalted()
T9910 000:680.540   CPU_ReadMem(2 bytes @ 0x20000000)
T9910 000:681.330 - 7.312ms returns TRUE
T9910 000:681.377 JLINK_ReadReg(R15 (PC))
T9910 000:681.406 - 0.040ms returns 0x20000000
T9910 000:681.650 JLINK_ClrBPEx(BPHandle = 0x00000005)
T9910 000:681.699 - 0.055ms returns 0x00
T9910 000:681.720 JLINK_ReadReg(R0)
T9910 000:681.731 - 0.016ms returns 0x00000000
T9910 000:682.475 JLINK_WriteMem(0x20000180, 0x0280 Bytes, ...)
T9910 000:682.487   Data:  A0 5D 00 20 55 02 00 08 BD 1E 00 08 ED 1D 00 08 ...
T9910 000:682.511   CPU_WriteMem(640 bytes @ 0x20000180)
T9910 000:691.313 - 8.873ms returns 0x280
T9910 000:691.361 JLINK_WriteMem(0x20000400, 0x0180 Bytes, ...)
T9910 000:691.368   Data:  43 F2 39 02 10 44 08 60 40 08 70 47 01 49 08 60 ...
T9910 000:691.401   CPU_WriteMem(384 bytes @ 0x20000400)
T9910 000:697.284 - 6.028ms returns 0x180
T9910 000:697.490 JLINK_WriteReg(R0, 0x08000000)
T9910 000:697.530 - 0.049ms returns 0x00
T9910 000:697.545 JLINK_WriteReg(R1, 0x00000400)
T9910 000:697.554 - 0.013ms returns 0x00
T9910 000:697.565 JLINK_WriteReg(R2, 0x20000180)
T9910 000:697.572 - 0.010ms returns 0x00
T9910 000:697.581 JLINK_WriteReg(R3, 0x00000000)
T9910 000:697.591 - 0.012ms returns 0x00
T9910 000:697.599 JLINK_WriteReg(R4, 0x00000000)
T9910 000:697.606 - 0.012ms returns 0x00
T9910 000:697.624 JLINK_WriteReg(R5, 0x00000000)
T9910 000:697.638 - 0.016ms returns 0x00
T9910 000:697.647 JLINK_WriteReg(R6, 0x00000000)
T9910 000:697.669 - 0.032ms returns 0x00
T9910 000:697.697 JLINK_WriteReg(R7, 0x00000000)
T9910 000:697.720 - 0.031ms returns 0x00
T9910 000:697.743 JLINK_WriteReg(R8, 0x00000000)
T9910 000:697.758 - 0.020ms returns 0x00
T9910 000:697.781 JLINK_WriteReg(R9, 0x2000017C)
T9910 000:697.803 - 0.032ms returns 0x00
T9910 000:697.827 JLINK_WriteReg(R10, 0x00000000)
T9910 000:697.842 - 0.022ms returns 0x00
T9910 000:697.863 JLINK_WriteReg(R11, 0x00000000)
T9910 000:697.880 - 0.023ms returns 0x00
T9910 000:697.902 JLINK_WriteReg(R12, 0x00000000)
T9910 000:697.919 - 0.024ms returns 0x00
T9910 000:697.938 JLINK_WriteReg(R13 (SP), 0x20001000)
T9910 000:697.958 - 0.027ms returns 0x00
T9910 000:697.976 JLINK_WriteReg(R14, 0x20000001)
T9910 000:697.993 - 0.026ms returns 0x00
T9910 000:698.015 JLINK_WriteReg(R15 (PC), 0x20000108)
T9910 000:698.032 - 0.027ms returns 0x00
T9910 000:698.051 JLINK_WriteReg(XPSR, 0x01000000)
T9910 000:698.060 - 0.013ms returns 0x00
T9910 000:698.069 JLINK_WriteReg(MSP, 0x20001000)
T9910 000:698.075 - 0.009ms returns 0x00
T9910 000:698.084 JLINK_WriteReg(PSP, 0x20001000)
T9910 000:698.091 - 0.009ms returns 0x00
T9910 000:698.098 JLINK_WriteReg(CFBP, 0x00000000)
T9910 000:698.104 - 0.009ms returns 0x00
T9910 000:698.115   JLINK_SetBPEx(Addr = 0x20000000, Type = 0xFFFFFFF2)
T9910 000:698.133 - 0.023ms returns 0x00000006
T9910 000:698.144 JLINK_Go()
T9910 000:698.188   CPU_ReadMem(4 bytes @ 0xE0001000)
T9910 000:705.114 - 7.021ms
T9910 000:705.188 JLINK_IsHalted()
T9910 000:705.921 - 0.745ms returns FALSE
T9910 000:712.662 JLINK_IsHalted()
T9910 000:719.399   CPU_ReadMem(2 bytes @ 0x20000000)
T9910 000:720.216 - 7.622ms returns TRUE
T9910 000:720.318 JLINK_ReadReg(R15 (PC))
T9910 000:720.351 - 0.044ms returns 0x20000000
T9910 000:720.377 JLINK_ClrBPEx(BPHandle = 0x00000006)
T9910 000:720.401 - 0.033ms returns 0x00
T9910 000:720.429 JLINK_ReadReg(R0)
T9910 000:720.445 - 0.024ms returns 0x00000000
T9910 000:722.384 JLINK_WriteMem(0x20000180, 0x0280 Bytes, ...)
T9910 000:722.453   Data:  A2 F5 60 72 C1 F3 13 01 00 2A 02 DC 30 BC 00 20 ...
T9910 000:722.552   CPU_WriteMem(640 bytes @ 0x20000180)
T9910 000:731.583 - 9.338ms returns 0x280
T9910 000:731.749 JLINK_WriteMem(0x20000400, 0x0180 Bytes, ...)
T9910 000:731.761   Data:  80 11 49 08 4F EA 30 00 00 19 51 41 32 46 2B 46 ...
T9910 000:731.820   CPU_WriteMem(384 bytes @ 0x20000400)
T9910 000:737.628 - 5.927ms returns 0x180
T9910 000:737.716 JLINK_WriteReg(R0, 0x08000400)
T9910 000:737.733 - 0.021ms returns 0x00
T9910 000:737.740 JLINK_WriteReg(R1, 0x00000400)
T9910 000:737.746 - 0.008ms returns 0x00
T9910 000:737.752 JLINK_WriteReg(R2, 0x20000180)
T9910 000:737.758 - 0.007ms returns 0x00
T9910 000:737.764 JLINK_WriteReg(R3, 0x00000000)
T9910 000:737.770 - 0.008ms returns 0x00
T9910 000:737.779 JLINK_WriteReg(R4, 0x00000000)
T9910 000:737.785 - 0.008ms returns 0x00
T9910 000:737.945 JLINK_WriteReg(R5, 0x00000000)
T9910 000:737.967 - 0.027ms returns 0x00
T9910 000:737.977 JLINK_WriteReg(R6, 0x00000000)
T9910 000:737.985 - 0.011ms returns 0x00
T9910 000:737.993 JLINK_WriteReg(R7, 0x00000000)
T9910 000:738.028 - 0.038ms returns 0x00
T9910 000:738.036 JLINK_WriteReg(R8, 0x00000000)
T9910 000:738.042 - 0.009ms returns 0x00
T9910 000:738.050 JLINK_WriteReg(R9, 0x2000017C)
T9910 000:738.055 - 0.008ms returns 0x00
T9910 000:738.064 JLINK_WriteReg(R10, 0x00000000)
T9910 000:738.070 - 0.008ms returns 0x00
T9910 000:738.077 JLINK_WriteReg(R11, 0x00000000)
T9910 000:738.083 - 0.008ms returns 0x00
T9910 000:738.091 JLINK_WriteReg(R12, 0x00000000)
T9910 000:738.096 - 0.009ms returns 0x00
T9910 000:738.104 JLINK_WriteReg(R13 (SP), 0x20001000)
T9910 000:738.113 - 0.011ms returns 0x00
T9910 000:738.121 JLINK_WriteReg(R14, 0x20000001)
T9910 000:738.127 - 0.008ms returns 0x00
T9910 000:738.134 JLINK_WriteReg(R15 (PC), 0x20000108)
T9910 000:738.141 - 0.009ms returns 0x00
T9910 000:738.148 JLINK_WriteReg(XPSR, 0x01000000)
T9910 000:738.154 - 0.008ms returns 0x00
T9910 000:738.161 JLINK_WriteReg(MSP, 0x20001000)
T9910 000:738.167 - 0.009ms returns 0x00
T9910 000:738.175 JLINK_WriteReg(PSP, 0x20001000)
T9910 000:738.181 - 0.009ms returns 0x00
T9910 000:738.189 JLINK_WriteReg(CFBP, 0x00000000)
T9910 000:738.194 - 0.008ms returns 0x00
T9910 000:738.204   JLINK_SetBPEx(Addr = 0x20000000, Type = 0xFFFFFFF2)
T9910 000:738.220 - 0.019ms returns 0x00000007
T9910 000:738.229 JLINK_Go()
T9910 000:738.272   CPU_ReadMem(4 bytes @ 0xE0001000)
T9910 000:744.575 - 6.374ms
T9910 000:744.617 JLINK_IsHalted()
T9910 000:745.192 - 0.603ms returns FALSE
T9910 000:751.469 JLINK_IsHalted()
T9910 000:757.786   CPU_ReadMem(2 bytes @ 0x20000000)
T9910 000:758.425 - 6.963ms returns TRUE
T9910 000:758.441 JLINK_ReadReg(R15 (PC))
T9910 000:758.450 - 0.011ms returns 0x20000000
T9910 000:758.457 JLINK_ClrBPEx(BPHandle = 0x00000007)
T9910 000:758.463 - 0.008ms returns 0x00
T9910 000:758.470 JLINK_ReadReg(R0)
T9910 000:758.476 - 0.008ms returns 0x00000000
T9910 000:758.948 JLINK_WriteMem(0x20000180, 0x0280 Bytes, ...)
T9910 000:758.957   Data:  03 0C 75 EB 00 0C 04 D3 E4 1A 65 EB 00 05 17 46 ...
T9910 000:758.976   CPU_WriteMem(640 bytes @ 0x20000180)
T9910 000:767.734 - 8.805ms returns 0x280
T9910 000:767.764 JLINK_WriteMem(0x20000400, 0x0180 Bytes, ...)
T9910 000:767.771   Data:  B8 EE C0 0A 4C 48 D0 ED 00 0A 20 EE 20 0A 86 ED ...
T9910 000:767.789   CPU_WriteMem(384 bytes @ 0x20000400)
T9910 000:773.475 - 5.764ms returns 0x180
T9910 000:773.575 JLINK_WriteReg(R0, 0x08000800)
T9910 000:773.599 - 0.028ms returns 0x00
T9910 000:773.608 JLINK_WriteReg(R1, 0x00000400)
T9910 000:773.615 - 0.009ms returns 0x00
T9910 000:773.624 JLINK_WriteReg(R2, 0x20000180)
T9910 000:773.630 - 0.009ms returns 0x00
T9910 000:773.638 JLINK_WriteReg(R3, 0x00000000)
T9910 000:773.644 - 0.009ms returns 0x00
T9910 000:773.653 JLINK_WriteReg(R4, 0x00000000)
T9910 000:773.658 - 0.008ms returns 0x00
T9910 000:773.666 JLINK_WriteReg(R5, 0x00000000)
T9910 000:773.671 - 0.008ms returns 0x00
T9910 000:773.678 JLINK_WriteReg(R6, 0x00000000)
T9910 000:773.684 - 0.008ms returns 0x00
T9910 000:773.691 JLINK_WriteReg(R7, 0x00000000)
T9910 000:773.698 - 0.009ms returns 0x00
T9910 000:773.706 JLINK_WriteReg(R8, 0x00000000)
T9910 000:773.711 - 0.008ms returns 0x00
T9910 000:773.721 JLINK_WriteReg(R9, 0x2000017C)
T9910 000:773.727 - 0.009ms returns 0x00
T9910 000:773.735 JLINK_WriteReg(R10, 0x00000000)
T9910 000:773.741 - 0.008ms returns 0x00
T9910 000:773.747 JLINK_WriteReg(R11, 0x00000000)
T9910 000:773.753 - 0.008ms returns 0x00
T9910 000:773.761 JLINK_WriteReg(R12, 0x00000000)
T9910 000:773.767 - 0.008ms returns 0x00
T9910 000:773.869 JLINK_WriteReg(R13 (SP), 0x20001000)
T9910 000:773.886 - 0.020ms returns 0x00
T9910 000:773.895 JLINK_WriteReg(R14, 0x20000001)
T9910 000:773.901 - 0.009ms returns 0x00
T9910 000:773.909 JLINK_WriteReg(R15 (PC), 0x20000108)
T9910 000:773.915 - 0.009ms returns 0x00
T9910 000:773.923 JLINK_WriteReg(XPSR, 0x01000000)
T9910 000:773.929 - 0.009ms returns 0x00
T9910 000:773.937 JLINK_WriteReg(MSP, 0x20001000)
T9910 000:773.942 - 0.009ms returns 0x00
T9910 000:774.100 JLINK_WriteReg(PSP, 0x20001000)
T9910 000:774.115 - 0.017ms returns 0x00
T9910 000:774.123 JLINK_WriteReg(CFBP, 0x00000000)
T9910 000:774.128 - 0.009ms returns 0x00
T9910 000:774.138   JLINK_SetBPEx(Addr = 0x20000000, Type = 0xFFFFFFF2)
T9910 000:774.150 - 0.015ms returns 0x00000008
T9910 000:774.158 JLINK_Go()
T9910 000:774.230   CPU_ReadMem(4 bytes @ 0xE0001000)
T9910 000:780.870 - 6.789ms
T9910 000:780.984 JLINK_IsHalted()
T9910 000:781.698 - 0.758ms returns FALSE
T9910 000:786.382 JLINK_IsHalted()
T9910 000:793.120   CPU_ReadMem(2 bytes @ 0x20000000)
T9910 000:793.793 - 7.430ms returns TRUE
T9910 000:793.823 JLINK_ReadReg(R15 (PC))
T9910 000:793.832 - 0.011ms returns 0x20000000
T9910 000:793.840 JLINK_ClrBPEx(BPHandle = 0x00000008)
T9910 000:793.846 - 0.008ms returns 0x00
T9910 000:793.853 JLINK_ReadReg(R0)
T9910 000:793.858 - 0.008ms returns 0x00000000
T9910 000:794.483 JLINK_WriteMem(0x20000180, 0x0280 Bytes, ...)
T9910 000:794.506   Data:  70 B5 04 46 00 BF 02 21 0A 48 01 F0 6F FA 00 28 ...
T9910 000:794.522   CPU_WriteMem(640 bytes @ 0x20000180)
T9910 000:803.583 - 9.208ms returns 0x280
T9910 000:803.745 JLINK_WriteMem(0x20000400, 0x0180 Bytes, ...)
T9910 000:803.763   Data:  11 46 03 48 00 F0 36 F9 0B B0 00 BD 00 0C 02 40 ...
T9910 000:803.839   CPU_WriteMem(384 bytes @ 0x20000400)
T9910 000:809.617 - 5.888ms returns 0x180
T9910 000:809.650 JLINK_WriteReg(R0, 0x08000C00)
T9910 000:809.662 - 0.014ms returns 0x00
T9910 000:809.669 JLINK_WriteReg(R1, 0x00000400)
T9910 000:809.675 - 0.008ms returns 0x00
T9910 000:809.682 JLINK_WriteReg(R2, 0x20000180)
T9910 000:809.687 - 0.008ms returns 0x00
T9910 000:809.696 JLINK_WriteReg(R3, 0x00000000)
T9910 000:809.701 - 0.008ms returns 0x00
T9910 000:809.709 JLINK_WriteReg(R4, 0x00000000)
T9910 000:809.715 - 0.008ms returns 0x00
T9910 000:809.721 JLINK_WriteReg(R5, 0x00000000)
T9910 000:809.727 - 0.008ms returns 0x00
T9910 000:809.734 JLINK_WriteReg(R6, 0x00000000)
T9910 000:809.740 - 0.008ms returns 0x00
T9910 000:809.747 JLINK_WriteReg(R7, 0x00000000)
T9910 000:809.752 - 0.008ms returns 0x00
T9910 000:809.759 JLINK_WriteReg(R8, 0x00000000)
T9910 000:809.764 - 0.008ms returns 0x00
T9910 000:809.771 JLINK_WriteReg(R9, 0x2000017C)
T9910 000:809.776 - 0.008ms returns 0x00
T9910 000:809.783 JLINK_WriteReg(R10, 0x00000000)
T9910 000:809.788 - 0.008ms returns 0x00
T9910 000:809.796 JLINK_WriteReg(R11, 0x00000000)
T9910 000:809.801 - 0.008ms returns 0x00
T9910 000:809.808 JLINK_WriteReg(R12, 0x00000000)
T9910 000:809.813 - 0.008ms returns 0x00
T9910 000:809.820 JLINK_WriteReg(R13 (SP), 0x20001000)
T9910 000:809.826 - 0.008ms returns 0x00
T9910 000:809.833 JLINK_WriteReg(R14, 0x20000001)
T9910 000:809.838 - 0.008ms returns 0x00
T9910 000:809.845 JLINK_WriteReg(R15 (PC), 0x20000108)
T9910 000:809.851 - 0.008ms returns 0x00
T9910 000:809.858 JLINK_WriteReg(XPSR, 0x01000000)
T9910 000:809.864 - 0.008ms returns 0x00
T9910 000:809.871 JLINK_WriteReg(MSP, 0x20001000)
T9910 000:809.876 - 0.008ms returns 0x00
T9910 000:809.884 JLINK_WriteReg(PSP, 0x20001000)
T9910 000:809.889 - 0.008ms returns 0x00
T9910 000:809.896 JLINK_WriteReg(CFBP, 0x00000000)
T9910 000:809.901 - 0.008ms returns 0x00
T9910 000:809.909   JLINK_SetBPEx(Addr = 0x20000000, Type = 0xFFFFFFF2)
T9910 000:809.918 - 0.012ms returns 0x00000009
T9910 000:809.924 JLINK_Go()
T9910 000:809.938   CPU_ReadMem(4 bytes @ 0xE0001000)
T9910 000:816.162 - 6.249ms
T9910 000:816.185 JLINK_IsHalted()
T9910 000:816.783 - 0.605ms returns FALSE
T9910 000:818.238 JLINK_IsHalted()
T9910 000:818.812 - 0.579ms returns FALSE
T9910 000:820.327 JLINK_IsHalted()
T9910 000:827.040   CPU_ReadMem(2 bytes @ 0x20000000)
T9910 000:827.629 - 7.311ms returns TRUE
T9910 000:827.647 JLINK_ReadReg(R15 (PC))
T9910 000:827.659 - 0.014ms returns 0x20000000
T9910 000:827.666 JLINK_ClrBPEx(BPHandle = 0x00000009)
T9910 000:827.672 - 0.008ms returns 0x00
T9910 000:827.680 JLINK_ReadReg(R0)
T9910 000:827.685 - 0.008ms returns 0x00000000
T9910 000:828.294 JLINK_WriteMem(0x20000180, 0x0280 Bytes, ...)
T9910 000:828.642   Data:  10 2D 31 D0 20 2D 35 D0 40 2D 6B D1 38 E0 B5 F5 ...
T9910 000:828.720   CPU_WriteMem(640 bytes @ 0x20000180)
T9910 000:837.874 - 9.744ms returns 0x280
T9910 000:838.102 JLINK_WriteMem(0x20000400, 0x0180 Bytes, ...)
T9910 000:838.123   Data:  01 13 5B 68 1B 0A D3 74 00 F5 D8 73 03 EB 01 13 ...
T9910 000:838.240   CPU_WriteMem(384 bytes @ 0x20000400)
T9910 000:844.124 - 6.041ms returns 0x180
T9910 000:844.168 JLINK_WriteReg(R0, 0x08001000)
T9910 000:844.182 - 0.016ms returns 0x00
T9910 000:844.189 JLINK_WriteReg(R1, 0x00000400)
T9910 000:844.195 - 0.009ms returns 0x00
T9910 000:844.206 JLINK_WriteReg(R2, 0x20000180)
T9910 000:844.213 - 0.009ms returns 0x00
T9910 000:844.222 JLINK_WriteReg(R3, 0x00000000)
T9910 000:844.227 - 0.008ms returns 0x00
T9910 000:844.234 JLINK_WriteReg(R4, 0x00000000)
T9910 000:844.239 - 0.008ms returns 0x00
T9910 000:844.247 JLINK_WriteReg(R5, 0x00000000)
T9910 000:844.253 - 0.008ms returns 0x00
T9910 000:844.259 JLINK_WriteReg(R6, 0x00000000)
T9910 000:844.265 - 0.008ms returns 0x00
T9910 000:844.272 JLINK_WriteReg(R7, 0x00000000)
T9910 000:844.277 - 0.008ms returns 0x00
T9910 000:844.284 JLINK_WriteReg(R8, 0x00000000)
T9910 000:844.289 - 0.008ms returns 0x00
T9910 000:844.296 JLINK_WriteReg(R9, 0x2000017C)
T9910 000:844.301 - 0.008ms returns 0x00
T9910 000:844.309 JLINK_WriteReg(R10, 0x00000000)
T9910 000:844.314 - 0.008ms returns 0x00
T9910 000:844.321 JLINK_WriteReg(R11, 0x00000000)
T9910 000:844.326 - 0.008ms returns 0x00
T9910 000:844.333 JLINK_WriteReg(R12, 0x00000000)
T9910 000:844.339 - 0.008ms returns 0x00
T9910 000:844.345 JLINK_WriteReg(R13 (SP), 0x20001000)
T9910 000:844.352 - 0.008ms returns 0x00
T9910 000:844.358 JLINK_WriteReg(R14, 0x20000001)
T9910 000:844.364 - 0.008ms returns 0x00
T9910 000:844.372 JLINK_WriteReg(R15 (PC), 0x20000108)
T9910 000:844.377 - 0.008ms returns 0x00
T9910 000:844.384 JLINK_WriteReg(XPSR, 0x01000000)
T9910 000:844.390 - 0.008ms returns 0x00
T9910 000:844.397 JLINK_WriteReg(MSP, 0x20001000)
T9910 000:844.403 - 0.008ms returns 0x00
T9910 000:844.409 JLINK_WriteReg(PSP, 0x20001000)
T9910 000:844.415 - 0.008ms returns 0x00
T9910 000:844.422 JLINK_WriteReg(CFBP, 0x00000000)
T9910 000:844.427 - 0.007ms returns 0x00
T9910 000:844.434   JLINK_SetBPEx(Addr = 0x20000000, Type = 0xFFFFFFF2)
T9910 000:844.443 - 0.011ms returns 0x0000000A
T9910 000:844.451 JLINK_Go()
T9910 000:844.473   CPU_ReadMem(4 bytes @ 0xE0001000)
T9910 000:850.808 - 6.387ms
T9910 000:850.851 JLINK_IsHalted()
T9910 000:851.394 - 0.550ms returns FALSE
T9910 000:856.362 JLINK_IsHalted()
T9910 000:863.075   CPU_ReadMem(2 bytes @ 0x20000000)
T9910 000:863.956 - 7.638ms returns TRUE
T9910 000:864.017 JLINK_ReadReg(R15 (PC))
T9910 000:864.039 - 0.025ms returns 0x20000000
T9910 000:864.048 JLINK_ClrBPEx(BPHandle = 0x0000000A)
T9910 000:864.056 - 0.011ms returns 0x00
T9910 000:864.066 JLINK_ReadReg(R0)
T9910 000:864.073 - 0.010ms returns 0x00000000
T9910 000:865.517 JLINK_WriteMem(0x20000180, 0x0280 Bytes, ...)
T9910 000:865.547   Data:  44 EA 03 44 0B 7B 44 EA 03 23 CC 7A 23 43 02 F5 ...
T9910 000:865.577   CPU_WriteMem(640 bytes @ 0x20000180)
T9910 000:874.474 - 9.009ms returns 0x280
T9910 000:874.548 JLINK_WriteMem(0x20000400, 0x0180 Bytes, ...)
T9910 000:874.555   Data:  F0 30 03 F0 B5 F9 00 BF 00 BF 10 BD 3C 01 00 20 ...
T9910 000:874.598   CPU_WriteMem(384 bytes @ 0x20000400)
T9910 000:880.530 - 6.058ms returns 0x180
T9910 000:880.662 JLINK_WriteReg(R0, 0x08001400)
T9910 000:880.698 - 0.042ms returns 0x00
T9910 000:880.828 JLINK_WriteReg(R1, 0x00000400)
T9910 000:880.843 - 0.018ms returns 0x00
T9910 000:880.851 JLINK_WriteReg(R2, 0x20000180)
T9910 000:880.856 - 0.008ms returns 0x00
T9910 000:880.863 JLINK_WriteReg(R3, 0x00000000)
T9910 000:880.868 - 0.007ms returns 0x00
T9910 000:880.875 JLINK_WriteReg(R4, 0x00000000)
T9910 000:880.880 - 0.007ms returns 0x00
T9910 000:880.887 JLINK_WriteReg(R5, 0x00000000)
T9910 000:880.892 - 0.008ms returns 0x00
T9910 000:880.899 JLINK_WriteReg(R6, 0x00000000)
T9910 000:880.916 - 0.019ms returns 0x00
T9910 000:880.923 JLINK_WriteReg(R7, 0x00000000)
T9910 000:880.930 - 0.009ms returns 0x00
T9910 000:880.936 JLINK_WriteReg(R8, 0x00000000)
T9910 000:880.942 - 0.009ms returns 0x00
T9910 000:880.950 JLINK_WriteReg(R9, 0x2000017C)
T9910 000:880.955 - 0.008ms returns 0x00
T9910 000:880.964 JLINK_WriteReg(R10, 0x00000000)
T9910 000:880.971 - 0.010ms returns 0x00
T9910 000:880.981 JLINK_WriteReg(R11, 0x00000000)
T9910 000:880.990 - 0.012ms returns 0x00
T9910 000:880.999 JLINK_WriteReg(R12, 0x00000000)
T9910 000:881.005 - 0.007ms returns 0x00
T9910 000:881.012 JLINK_WriteReg(R13 (SP), 0x20001000)
T9910 000:881.023 - 0.014ms returns 0x00
T9910 000:881.032 JLINK_WriteReg(R14, 0x20000001)
T9910 000:881.038 - 0.009ms returns 0x00
T9910 000:881.046 JLINK_WriteReg(R15 (PC), 0x20000108)
T9910 000:881.054 - 0.011ms returns 0x00
T9910 000:881.062 JLINK_WriteReg(XPSR, 0x01000000)
T9910 000:881.069 - 0.010ms returns 0x00
T9910 000:881.077 JLINK_WriteReg(MSP, 0x20001000)
T9910 000:881.082 - 0.008ms returns 0x00
T9910 000:881.091 JLINK_WriteReg(PSP, 0x20001000)
T9910 000:881.099 - 0.012ms returns 0x00
T9910 000:881.109 JLINK_WriteReg(CFBP, 0x00000000)
T9910 000:881.116 - 0.011ms returns 0x00
T9910 000:881.126   JLINK_SetBPEx(Addr = 0x20000000, Type = 0xFFFFFFF2)
T9910 000:881.143 - 0.022ms returns 0x0000000B
T9910 000:881.155 JLINK_Go()
T9910 000:881.201   CPU_ReadMem(4 bytes @ 0xE0001000)
T9910 000:888.156 - 7.137ms
T9910 000:888.398 JLINK_IsHalted()
T9910 000:889.106 - 0.740ms returns FALSE
T9910 000:893.238 JLINK_IsHalted()
T9910 000:899.633   CPU_ReadMem(2 bytes @ 0x20000000)
T9910 000:900.228 - 6.999ms returns TRUE
T9910 000:900.245 JLINK_ReadReg(R15 (PC))
T9910 000:900.255 - 0.012ms returns 0x20000000
T9910 000:900.262 JLINK_ClrBPEx(BPHandle = 0x0000000B)
T9910 000:900.268 - 0.008ms returns 0x00
T9910 000:900.275 JLINK_ReadReg(R0)
T9910 000:900.280 - 0.008ms returns 0x00000000
T9910 000:900.762 JLINK_WriteMem(0x20000180, 0x0280 Bytes, ...)
T9910 000:900.771   Data:  25 7F 01 DD 00 20 02 E0 0C 48 B0 F9 06 00 0B 49 ...
T9910 000:900.788   CPU_WriteMem(640 bytes @ 0x20000180)
T9910 000:909.603 - 8.862ms returns 0x280
T9910 000:909.637 JLINK_WriteMem(0x20000400, 0x0180 Bytes, ...)
T9910 000:909.644   Data:  91 60 82 E0 41 49 30 31 88 42 05 D1 4F F4 74 11 ...
T9910 000:909.663   CPU_WriteMem(384 bytes @ 0x20000400)
T9910 000:915.236 - 5.614ms returns 0x180
T9910 000:915.267 JLINK_WriteReg(R0, 0x08001800)
T9910 000:915.277 - 0.013ms returns 0x00
T9910 000:915.284 JLINK_WriteReg(R1, 0x00000400)
T9910 000:915.290 - 0.008ms returns 0x00
T9910 000:915.331 JLINK_WriteReg(R2, 0x20000180)
T9910 000:915.341 - 0.012ms returns 0x00
T9910 000:915.348 JLINK_WriteReg(R3, 0x00000000)
T9910 000:915.353 - 0.008ms returns 0x00
T9910 000:915.360 JLINK_WriteReg(R4, 0x00000000)
T9910 000:915.365 - 0.008ms returns 0x00
T9910 000:915.372 JLINK_WriteReg(R5, 0x00000000)
T9910 000:915.377 - 0.008ms returns 0x00
T9910 000:915.384 JLINK_WriteReg(R6, 0x00000000)
T9910 000:915.389 - 0.008ms returns 0x00
T9910 000:915.396 JLINK_WriteReg(R7, 0x00000000)
T9910 000:915.401 - 0.008ms returns 0x00
T9910 000:915.408 JLINK_WriteReg(R8, 0x00000000)
T9910 000:915.414 - 0.008ms returns 0x00
T9910 000:915.420 JLINK_WriteReg(R9, 0x2000017C)
T9910 000:915.426 - 0.008ms returns 0x00
T9910 000:915.432 JLINK_WriteReg(R10, 0x00000000)
T9910 000:915.438 - 0.008ms returns 0x00
T9910 000:915.444 JLINK_WriteReg(R11, 0x00000000)
T9910 000:915.450 - 0.008ms returns 0x00
T9910 000:915.456 JLINK_WriteReg(R12, 0x00000000)
T9910 000:915.462 - 0.008ms returns 0x00
T9910 000:915.468 JLINK_WriteReg(R13 (SP), 0x20001000)
T9910 000:915.475 - 0.008ms returns 0x00
T9910 000:915.481 JLINK_WriteReg(R14, 0x20000001)
T9910 000:915.487 - 0.008ms returns 0x00
T9910 000:915.493 JLINK_WriteReg(R15 (PC), 0x20000108)
T9910 000:915.499 - 0.008ms returns 0x00
T9910 000:915.505 JLINK_WriteReg(XPSR, 0x01000000)
T9910 000:915.511 - 0.008ms returns 0x00
T9910 000:915.517 JLINK_WriteReg(MSP, 0x20001000)
T9910 000:915.529 - 0.014ms returns 0x00
T9910 000:915.536 JLINK_WriteReg(PSP, 0x20001000)
T9910 000:915.542 - 0.008ms returns 0x00
T9910 000:915.548 JLINK_WriteReg(CFBP, 0x00000000)
T9910 000:915.554 - 0.008ms returns 0x00
T9910 000:915.561   JLINK_SetBPEx(Addr = 0x20000000, Type = 0xFFFFFFF2)
T9910 000:915.570 - 0.012ms returns 0x0000000C
T9910 000:915.577 JLINK_Go()
T9910 000:915.590   CPU_ReadMem(4 bytes @ 0xE0001000)
T9910 000:922.339 - 6.894ms
T9910 000:922.558 JLINK_IsHalted()
T9910 000:923.384 - 0.844ms returns FALSE
T9910 000:925.187 JLINK_IsHalted()
T9910 000:925.837 - 0.662ms returns FALSE
T9910 000:927.163 JLINK_IsHalted()
T9910 000:933.438   CPU_ReadMem(2 bytes @ 0x20000000)
T9910 000:934.034 - 6.877ms returns TRUE
T9910 000:934.048 JLINK_ReadReg(R15 (PC))
T9910 000:934.057 - 0.011ms returns 0x20000000
T9910 000:934.064 JLINK_ClrBPEx(BPHandle = 0x0000000C)
T9910 000:934.070 - 0.008ms returns 0x00
T9910 000:934.077 JLINK_ReadReg(R0)
T9910 000:934.082 - 0.008ms returns 0x00000000
T9910 000:934.533 JLINK_WriteMem(0x20000180, 0x0280 Bytes, ...)
T9910 000:934.541   Data:  00 25 12 4E B2 42 01 D2 11 4B 01 E0 0F 4B 10 3B ...
T9910 000:934.555   CPU_WriteMem(640 bytes @ 0x20000180)
T9910 000:943.332 - 8.884ms returns 0x280
T9910 000:943.430 JLINK_WriteMem(0x20000400, 0x0180 Bytes, ...)
T9910 000:943.437   Data:  69 46 0A 48 FF F7 35 FF 4F F4 80 71 07 48 FF F7 ...
T9910 000:943.457   CPU_WriteMem(384 bytes @ 0x20000400)
T9910 000:949.140 - 5.732ms returns 0x180
T9910 000:949.179 JLINK_WriteReg(R0, 0x08001C00)
T9910 000:949.189 - 0.013ms returns 0x00
T9910 000:949.196 JLINK_WriteReg(R1, 0x00000400)
T9910 000:949.202 - 0.008ms returns 0x00
T9910 000:949.208 JLINK_WriteReg(R2, 0x20000180)
T9910 000:949.214 - 0.007ms returns 0x00
T9910 000:949.286 JLINK_WriteReg(R3, 0x00000000)
T9910 000:949.298 - 0.014ms returns 0x00
T9910 000:949.305 JLINK_WriteReg(R4, 0x00000000)
T9910 000:949.311 - 0.008ms returns 0x00
T9910 000:949.318 JLINK_WriteReg(R5, 0x00000000)
T9910 000:949.324 - 0.008ms returns 0x00
T9910 000:949.330 JLINK_WriteReg(R6, 0x00000000)
T9910 000:949.336 - 0.008ms returns 0x00
T9910 000:949.343 JLINK_WriteReg(R7, 0x00000000)
T9910 000:949.348 - 0.007ms returns 0x00
T9910 000:949.355 JLINK_WriteReg(R8, 0x00000000)
T9910 000:949.360 - 0.008ms returns 0x00
T9910 000:949.367 JLINK_WriteReg(R9, 0x2000017C)
T9910 000:949.372 - 0.007ms returns 0x00
T9910 000:949.379 JLINK_WriteReg(R10, 0x00000000)
T9910 000:949.384 - 0.008ms returns 0x00
T9910 000:949.391 JLINK_WriteReg(R11, 0x00000000)
T9910 000:949.396 - 0.008ms returns 0x00
T9910 000:949.403 JLINK_WriteReg(R12, 0x00000000)
T9910 000:949.408 - 0.008ms returns 0x00
T9910 000:949.415 JLINK_WriteReg(R13 (SP), 0x20001000)
T9910 000:949.421 - 0.008ms returns 0x00
T9910 000:949.428 JLINK_WriteReg(R14, 0x20000001)
T9910 000:949.433 - 0.008ms returns 0x00
T9910 000:949.440 JLINK_WriteReg(R15 (PC), 0x20000108)
T9910 000:949.446 - 0.008ms returns 0x00
T9910 000:949.452 JLINK_WriteReg(XPSR, 0x01000000)
T9910 000:949.458 - 0.008ms returns 0x00
T9910 000:949.464 JLINK_WriteReg(MSP, 0x20001000)
T9910 000:949.470 - 0.008ms returns 0x00
T9910 000:949.476 JLINK_WriteReg(PSP, 0x20001000)
T9910 000:949.482 - 0.007ms returns 0x00
T9910 000:949.488 JLINK_WriteReg(CFBP, 0x00000000)
T9910 000:949.494 - 0.007ms returns 0x00
T9910 000:949.501   JLINK_SetBPEx(Addr = 0x20000000, Type = 0xFFFFFFF2)
T9910 000:949.510 - 0.012ms returns 0x0000000D
T9910 000:949.517 JLINK_Go()
T9910 000:949.531   CPU_ReadMem(4 bytes @ 0xE0001000)
T9910 000:955.940 - 6.480ms
T9910 000:956.015 JLINK_IsHalted()
T9910 000:956.597 - 0.597ms returns FALSE
T9910 000:958.054 JLINK_IsHalted()
T9910 000:958.662 - 0.612ms returns FALSE
T9910 000:960.138 JLINK_IsHalted()
T9910 000:966.342   CPU_ReadMem(2 bytes @ 0x20000000)
T9910 000:966.884 - 6.753ms returns TRUE
T9910 000:966.899 JLINK_ReadReg(R15 (PC))
T9910 000:966.908 - 0.011ms returns 0x20000000
T9910 000:966.915 JLINK_ClrBPEx(BPHandle = 0x0000000D)
T9910 000:966.927 - 0.016ms returns 0x00
T9910 000:966.936 JLINK_ReadReg(R0)
T9910 000:966.942 - 0.008ms returns 0x00000000
T9910 000:968.560 JLINK_WriteMem(0x20000180, 0x0280 Bytes, ...)
T9910 000:968.571   Data:  0C 01 21 B1 04 29 05 D0 08 29 37 D1 05 E0 2E 4F ...
T9910 000:968.587   CPU_WriteMem(640 bytes @ 0x20000180)
T9910 000:977.412 - 8.868ms returns 0x280
T9910 000:977.441 JLINK_WriteMem(0x20000400, 0x0180 Bytes, ...)
T9910 000:977.448   Data:  12 10 69 46 02 48 FF F7 50 F8 05 B0 F0 BD 00 00 ...
T9910 000:977.472   CPU_WriteMem(384 bytes @ 0x20000400)
T9910 000:983.097 - 5.679ms returns 0x180
T9910 000:983.139 JLINK_WriteReg(R0, 0x08002000)
T9910 000:983.150 - 0.013ms returns 0x00
T9910 000:983.158 JLINK_WriteReg(R1, 0x00000400)
T9910 000:983.164 - 0.008ms returns 0x00
T9910 000:983.237 JLINK_WriteReg(R2, 0x20000180)
T9910 000:983.250 - 0.017ms returns 0x00
T9910 000:983.258 JLINK_WriteReg(R3, 0x00000000)
T9910 000:983.264 - 0.008ms returns 0x00
T9910 000:983.271 JLINK_WriteReg(R4, 0x00000000)
T9910 000:983.276 - 0.008ms returns 0x00
T9910 000:983.284 JLINK_WriteReg(R5, 0x00000000)
T9910 000:983.290 - 0.008ms returns 0x00
T9910 000:983.297 JLINK_WriteReg(R6, 0x00000000)
T9910 000:983.303 - 0.008ms returns 0x00
T9910 000:983.310 JLINK_WriteReg(R7, 0x00000000)
T9910 000:983.315 - 0.008ms returns 0x00
T9910 000:983.322 JLINK_WriteReg(R8, 0x00000000)
T9910 000:983.327 - 0.008ms returns 0x00
T9910 000:983.334 JLINK_WriteReg(R9, 0x2000017C)
T9910 000:983.339 - 0.008ms returns 0x00
T9910 000:983.346 JLINK_WriteReg(R10, 0x00000000)
T9910 000:983.351 - 0.008ms returns 0x00
T9910 000:983.358 JLINK_WriteReg(R11, 0x00000000)
T9910 000:983.363 - 0.008ms returns 0x00
T9910 000:983.370 JLINK_WriteReg(R12, 0x00000000)
T9910 000:983.375 - 0.008ms returns 0x00
T9910 000:983.382 JLINK_WriteReg(R13 (SP), 0x20001000)
